
T2EF4 000:067 SEGGER J-Link V4.62 Log File (0001ms, 0068ms total)
T2EF4 000:067 DLL Compiled: Jan 25 2013 15:19:47 (0001ms, 0068ms total)
T2EF4 000:067 Logging started @ 2014-05-16 10:00 (0001ms, 0068ms total)
T2EF4 000:068 JLINK_SetWarnOutHandler(...) (0000ms, 0068ms total)
T2EF4 000:068 JLINK_OpenEx(...)
Firmware: J-Link ARM V8 compiled Jul 17 2013 11:24:15
Hardware: V8.00
S/N: 270676280
Feature(s): RDI,FlashDL,FlashBP,JFlash,GDBFULL  returns O.K. (0037ms, 0105ms total)
T2EF4 000:105 JLINK_SetErrorOutHandler(...) (0000ms, 0105ms total)
T2EF4 000:105 JLINK_ExecCommand("ProjectFile = "C:\Users\James\Desktop\vhe-01-00-stm32f100\JLinkSettings.ini"", ...)  returns 0x00 (0000ms, 0105ms total)
T2EF4 000:105 JLINK_ExecCommand("Device = STM32F100C8", ...)
                JLINK_ExecCommand("map ram 0x20000000 - 0x20001FFF", ...)  returns 0x00 (0000ms, 0000ms total)
                JLINK_AddMirrorAreaEx(Addr = 0x00000000, Size = 0x00000000) (0000ms, 0000ms total)
              Device "STM32F100C8" selected (64 KB flash, 8 KB RAM).  returns 0x00 (0002ms, 0107ms total)
T2EF4 000:108 JLINK_ExecCommand("DisableConnectionTimeout", ...)  returns 0x00 (0000ms, 0107ms total)
T2EF4 000:108 JLINK_GetHardwareVersion()  returns 0x13880 (0000ms, 0107ms total)
T2EF4 000:108 JLINK_GetDLLVersion()  returns 46200 (0000ms, 0107ms total)
T2EF4 000:108 JLINK_GetFirmwareString(...) (0000ms, 0107ms total)
T2EF4 000:109 JLINK_GetDLLVersion()  returns 46200 (0000ms, 0107ms total)
T2EF4 000:109 JLINK_GetCompileDateTime() (0000ms, 0107ms total)
T2EF4 000:110 JLINK_GetFirmwareString(...) (0000ms, 0107ms total)
T2EF4 000:110 JLINK_GetHardwareVersion()  returns 0x13880 (0000ms, 0107ms total)
T2EF4 000:110 JLINK_TIF_Select(JLINKARM_TIF_SWD)  returns 0x00 (0007ms, 0114ms total)
T2EF4 000:117 JLINK_SetSpeed(50) (0002ms, 0116ms total)
T2EF4 000:119 JLINK_GetId() >0x108 TIF>Found SWD-DP with ID 0x1BA01477 >0x0D TIF> >0x28 TIF> >0x0D TIF> >0x28 TIF> >0x0D TIF> >0x21 TIF> >0x0D TIF> >0x28 TIF> >0x0D TIF> >0x28 TIF> >0x0D TIF> >0x28 TIF> >0x0D TIF> >0x21 TIF> >0x0D TIF> >0x21 TIF> >0x0D TIF> >0x28 TIF> >0x0D TIF> >0x21 TIF> >0x0D TIF> >0x21 TIF> >0x108 TIF>Found SWD-DP with ID 0x1BA01477 >0x0D TIF> >0x21 TIF> >0x0D TIF> >0x28 TIF> >0x0D TIF> >0x28 TIF> >0x0D TIF> >0x21 TIF> >0x0D TIF> >0x21 TIF> >0x0D TIF> >0x28 TIF> >0x0D TIF> >0x21 TIF>
 >0x0D TIF> >0x21 TIF> >0x0D TIF> >0x21 TIF> >0x0D TIF> >0x21 TIF> >0x0D TIF> >0x21 TIF> >0x0D TIF> >0x28 TIF> >0x0D TIF> >0x28 TIF> >0x0D TIF> >0x21 TIF> >0x0D TIF> >0x21 TIF> >0x0D TIF> >0x28 TIF> >0x0D TIF> >0x21 TIF> >0x0D TIF> >0x21 TIF> >0x0D TIF> >0x28 TIF> >0x0D TIF> >0x28 TIF> >0x0D TIF> >0x28 TIF> >0x0D TIF> >0x21 TIF> >0x0D TIF> >0x21 TIF> >0x0D TIF> >0x28 TIF> >0x0D TIF> >0x28 TIF> >0x0D TIF> >0x28 TIF> >0x0D TIF> >0x21 TIF> >0x0D TIF> >0x21 TIF> >0x0D TIF> >0x21 TIF>TPIU fitted. >0x0D TIF>
 >0x28 TIF> >0x0D TIF> >0x21 TIF> >0x0D TIF> >0x21 TIF> >0x0D TIF> >0x28 TIF> >0x0D TIF> >0x21 TIF> >0x0D TIF> >0x21 TIF>FPUnit: 6 code (BP) slots and 2 literal slots >0x0D TIF> >0x28 TIF> >0x0D TIF> >0x21 TIF> >0x0D TIF> >0x21 TIF> >0x0D TIF> >0x28 TIF> >0x0D TIF> >0x21 TIF> >0x0D TIF> >0x21 TIF> >0x0D TIF> >0x28 TIF> >0x0D TIF> >0x21 TIF> >0x0D TIF> >0x21 TIF> >0x0D TIF> >0x28 TIF> >0x0D TIF> >0x21 TIF> >0x0D TIF> >0x21 TIF>Found Cortex-M3 r1p1, Little endian. >0x0D TIF> >0x21 TIF>  returns 0x1BA01477
 (0175ms, 0291ms total)
T2EF4 000:294 JLINK_GetDeviceFamily()  returns 3 (0000ms, 0291ms total)
T2EF4 000:295 JLINK_ReadMem (0xE00FFFF0, 0x0010 Bytes, ...) -- CPU is running -- CPU_ReadMem(16 bytes @ 0xE00FFFF0) -- Data:  0D 00 00 00 10 00 00 00 05 00 00 00 B1 00 00 00  returns 0x00 (0011ms, 0303ms total)
T2EF4 000:306 JLINK_ReadMem (0xE00FFFD0, 0x0020 Bytes, ...) -- CPU is running -- CPU_ReadMem(32 bytes @ 0xE00FFFD0) -- Data:  00 00 00 00 00 00 00 00 00 00 00 00 00 00 00 00 ...  returns 0x00 (0014ms, 0317ms total)
T2EF4 000:320 JLINK_ReadMem (0xE00FF000, 0x0018 Bytes, ...) -- CPU is running -- CPU_ReadMem(24 bytes @ 0xE00FF000) -- Data:  03 F0 F0 FF 03 20 F0 FF 03 30 F0 FF 03 10 F0 FF ...  returns 0x00 (0011ms, 0328ms total)
T2EF4 000:332 JLINK_ReadMemU32(0xE000ED00, 0x0001 Items, ...) -- CPU is running -- CPU_ReadMem(4 bytes @ 0xE000ED00) -- Data:  31 C2 1F 41  returns 0x01 (0006ms, 0335ms total)
T2EF4 000:338 JLINK_SetResetType(JLINKARM_RESET_TYPE_NORMAL)  returns JLINKARM_RESET_TYPE_NORMAL (0001ms, 0336ms total)
T2EF4 000:339 JLINK_Reset() -- CPU is running -- CPU_WriteMem(4 bytes @ 0xE000EDF0) -- CPU is running -- CPU_WriteMem(4 bytes @ 0xE000EDFC) >0x35 TIF> -- CPU is running -- CPU_WriteMem(4 bytes @ 0xE000ED0C) -- CPU is running -- CPU_ReadMem(4 bytes @ 0xE000EDF0) -- CPU is running -- CPU_ReadMem(4 bytes @ 0xE000EDF0) -- CPU is running -- CPU_WriteMem(4 bytes @ 0xE000EDF0) -- CPU is running -- CPU_WriteMem(4 bytes @ 0xE000EDFC) -- CPU is running -- CPU_ReadMem(4 bytes @ 0xE000EDF0)
 -- CPU_WriteMem(4 bytes @ 0xE0002000) (0141ms, 0477ms total)
T2EF4 000:480 JLINK_ReadReg(R15)  returns 0x080001BC (0001ms, 0478ms total)
T2EF4 000:481 JLINK_ReadReg(XPSR)  returns 0x01000000 (0000ms, 0478ms total)
T2EF4 000:481 JLINK_Halt()  returns 0x00 (0000ms, 0478ms total)
T2EF4 000:481 JLINK_IsHalted()  returns TRUE (0000ms, 0478ms total)
T2EF4 000:481 JLINK_ReadMemU32(0xE000EDF0, 0x0001 Items, ...) -- CPU_ReadMem(4 bytes @ 0xE000EDF0) -- Data:  03 00 03 00  returns 0x01 (0006ms, 0484ms total)
T2EF4 000:487 JLINK_WriteU32(0xE000EDF0, 0xA05F0003) -- CPU_WriteMem(4 bytes @ 0xE000EDF0)  returns 0x00 (0007ms, 0491ms total)
T2EF4 000:495 JLINK_WriteU32(0xE000EDFC, 0x01000000) -- CPU_WriteMem(4 bytes @ 0xE000EDFC)  returns 0x00 (0006ms, 0498ms total)
T2EF4 000:502 JLINK_GetHWStatus(...)  returns 0x00 (0000ms, 0498ms total)
T2EF4 000:503 JLINK_GetNumBPUnits(Type = 0xFFFFFF00)  returns 0x06 (0000ms, 0498ms total)
T2EF4 000:503 JLINK_GetNumBPUnits(Type = 0xF0)  returns 0x2000 (0000ms, 0498ms total)
T2EF4 000:503 JLINK_GetNumWPUnits()  returns 0x04 (0001ms, 0499ms total)
T2EF4 000:504 JLINK_GetSpeed()  returns 0x32 (0000ms, 0499ms total)
T2EF4 000:504 JLINK_ReadMemU32(0xE000E004, 0x0001 Items, ...) -- CPU_ReadMem(4 bytes @ 0xE000E004) -- Data:  01 00 00 00  returns 0x01 (0007ms, 0506ms total)
T2EF4 000:511 JLINK_ReadMemU32(0xE000E004, 0x0001 Items, ...) -- CPU_ReadMem(4 bytes @ 0xE000E004) -- Data:  01 00 00 00  returns 0x01 (0007ms, 0513ms total)
T2EF4 000:518 JLINK_WriteMem(0xE0001000, 0x001C Bytes, ...) -- Data:  01 00 00 00 00 00 00 00 00 00 00 00 00 00 00 00 ... -- CPU_WriteMem(28 bytes @ 0xE0001000)  returns 0x1C (0013ms, 0526ms total)
T2EF4 000:531 JLINK_ReadMem (0xE0001000, 0x001C Bytes, ...) -- CPU_ReadMem(28 bytes @ 0xE0001000) -- Data:  01 00 00 40 00 00 00 00 00 00 00 00 00 00 00 00 ...  returns 0x00 (0013ms, 0539ms total)
T2EF4 000:545 JLINK_ReadReg(R15)  returns 0x080001BC (0000ms, 0540ms total)
T2EF4 000:545 JLINK_ReadReg(XPSR)  returns 0x01000000 (0000ms, 0540ms total)
T2EF4 000:567 JLINK_WriteMem(0x08000000, 0x1000 Bytes, ...) -- Data:  48 08 00 20 BD 01 00 08 DD 1C 00 08 DF 1C 00 08 ...  returns 0x1000 (0000ms, 0540ms total)
T2EF4 000:567 JLINK_ReadMem (0x08000000, 0x1000 Bytes, ...) -- Read from flash cache (4096 bytes @ 0x08000000) -- Data:  48 08 00 20 BD 01 00 08 DD 1C 00 08 DF 1C 00 08 ...  returns 0x00 (0000ms, 0540ms total)
T2EF4 000:568 JLINK_WriteMem(0x08001000, 0x1000 Bytes, ...) -- Data:  19 D1 35 48 00 69 40 F0 10 00 33 49 08 61 47 F0 ...  returns 0x1000 (0000ms, 0540ms total)
T2EF4 000:568 JLINK_ReadMem (0x08001000, 0x1000 Bytes, ...) -- Read from flash cache (4096 bytes @ 0x08001000) -- Data:  19 D1 35 48 00 69 40 F0 10 00 33 49 08 61 47 F0 ...  returns 0x00 (0000ms, 0540ms total)
T2EF4 000:569 JLINK_WriteMem(0x08002000, 0x0C50 Bytes, ...) -- Data:  00 20 88 62 33 48 FE F7 0B FD 01 21 31 48 FE F7 ...  returns 0xC50 (0000ms, 0540ms total)
T2EF4 000:569 JLINK_ReadMem (0x08002000, 0x0C50 Bytes, ...) -- Read from flash cache (3152 bytes @ 0x08002000) -- Data:  00 20 88 62 33 48 FE F7 0B FD 01 21 31 48 FE F7 ...  returns 0x00 (0000ms, 0540ms total)
T2EF4 000:621 JLINK_SetResetType(JLINKARM_RESET_TYPE_NORMAL)  returns JLINKARM_RESET_TYPE_NORMAL (0000ms, 0540ms total)
T2EF4 000:622 JLINK_Reset() -- -------------------------------------- -- Start of determining dirty areas -- End of determining dirty areas -- Start of preparing flash programming
                JLINK_GetDeviceFamily()  returns 3 (0000ms, 0000ms total)
               -- Calculating RAM usage -- RAM usage = 2812 Bytes -- Preserving registers
                JLINK_ReadReg(XPSR)  returns 0x01000000 (0000ms, 0000ms total)
                JLINK_ReadReg(CFBP)  returns 0x00000000 (0000ms, 0000ms total)
                JLINK_ReadReg(R0)  returns 0x00000000 (0000ms, 0000ms total)
                JLINK_ReadReg(R1)  returns 0x2000005A (0000ms, 0000ms total)
                JLINK_ReadReg(R2)  returns 0x0599059B (0000ms, 0000ms total)
                JLINK_ReadReg(R3)  returns 0x059C059C (0000ms, 0000ms total)
                JLINK_ReadReg(R4)  returns 0x00000000 (0000ms, 0000ms total)
                JLINK_ReadReg(R5)  returns 0x200001E8 (0000ms, 0000ms total)
                JLINK_ReadReg(R6)  returns 0x00000000 (0000ms, 0001ms total)
                JLINK_ReadReg(R7)  returns 0x00000000 (0000ms, 0001ms total)
                JLINK_ReadReg(R8)  returns 0x00000000 (0000ms, 0001ms total)
                JLINK_ReadReg(R9)  returns 0x7EFEEFFF (0000ms, 0001ms total)
                JLINK_ReadReg(R10)  returns 0x08002BE8 (0000ms, 0001ms total)
                JLINK_ReadReg(R11)  returns 0x00000000 (0000ms, 0001ms total)
                JLINK_ReadReg(R12)  returns 0x00000003 (0000ms, 0001ms total)
                JLINK_ReadReg(R14)  returns 0xFFFFFFFF (0000ms, 0001ms total)
                JLINK_ReadReg(R15)  returns 0x080001BC (0000ms, 0001ms total)
                JLINK_ReadReg(MSP)  returns 0x20000848 (0000ms, 0001ms total)
                JLINK_ReadReg(PSP)  returns 0x5D5F7EF0 (0000ms, 0001ms total)
               -- Preparing memory -- Determining CPU clock frequency
                JLINK_MeasureCPUSpeedEx(RAMAddr = 0x2000061C) -- CPU_ReadMem(16 bytes @ 0x2000061C) -- CPU_WriteMem(6 bytes @ 0x2000061C) -- CPU_ReadMem(6 bytes @ 0x2000061C) -- CPU_WriteMem(4 bytes @ 0xE0002008) -- CPU_WriteMem(4 bytes @ 0xE000200C) -- CPU_WriteMem(4 bytes @ 0xE0002010) -- CPU_WriteMem(4 bytes @ 0xE0002014) -- CPU_WriteMem(4 bytes @ 0xE0002018) -- CPU_WriteMem(4 bytes @ 0xE000201C) -- CPU_WriteMem(4 bytes @ 0xE0002008) -- CPU_WriteMem(4 bytes @ 0xE000200C)
 -- CPU_WriteMem(4 bytes @ 0xE0002010) -- CPU_WriteMem(4 bytes @ 0xE0002014) -- CPU_WriteMem(4 bytes @ 0xE0002018) -- CPU_WriteMem(4 bytes @ 0xE000201C) -- ClockFreq: 7971600 Hz  returns 0x79A310 (0338ms, 0339ms total)
               -- CPU clock frequency: 7971 kHz -- CPU frequency = 7971 kHz -- Preparing target
                JLINK_GetSpeedInfo() 4000000 Hz / n, n >= 1 (0000ms, 0339ms total)
                JLINK_GetSpeed()  returns 0x32 (0000ms, 0339ms total)
               -- Downloading RAMCode -- Using alternate TurboMode RAMCode
                JLINK_WriteMemEx(0x20000000, 0x04F4 Bytes, ..., AccessWidth = 0) -- Data:  00 BE 01 A8 00 99 00 F0 41 F9 F9 E7 EC 46 40 30 ... -- CPU_WriteMem(1268 bytes @ 0x20000000)  returns 0x4F4 (0315ms, 0654ms total)
                JLINK_ReadMemEx(0x20000000, 0x04F4 Bytes, ..., AccessWidth = 0) -- CPU_ReadMem(1268 bytes @ 0x20000000) -- Data:  00 BE 01 A8 00 99 00 F0 41 F9 F9 E7 EC 46 40 30 ...  returns 0x4F4 (0312ms, 0966ms total)
               -- Checking target RAM
                JLINK_WriteMemEx(0x200005F8, 0x0004 Bytes, ..., AccessWidth = 0) -- Data:  1C 06 00 20 -- CPU_WriteMem(4 bytes @ 0x200005F8)  returns 0x04 (0006ms, 0972ms total)
                JLINK_WriteMemEx(0x2000061C, 0x0004 Bytes, ..., AccessWidth = 0) -- Data:  00 00 00 00 -- CPU_WriteMem(4 bytes @ 0x2000061C)  returns 0x04 (0007ms, 0979ms total)
                JLINK_WriteMemEx(0x20000654, 0x0004 Bytes, ..., AccessWidth = 0) -- Data:  00 00 00 00 -- CPU_WriteMem(4 bytes @ 0x20000654)  returns 0x04 (0007ms, 0986ms total)
                JLINK_WriteReg(XPSR, 0x01000000)  returns 0x00 (0001ms, 0987ms total)
                JLINK_WriteReg(R13, 0x200005F8)  returns 0x00 (0000ms, 0987ms total)
                JLINK_WriteReg(R15, 0x20000002)  returns 0x00 (0000ms, 0987ms total)
                JLINK_GoIntDis() (0029ms, 1016ms total)
                JLINK_WriteMemEx(0x20000620, 0x002C Bytes, ..., AccessWidth = 0) -- Data:  8C 06 00 20 38 02 00 00 00 00 00 08 9C 06 00 00 ... -- CPU is running -- CPU_WriteMem(44 bytes @ 0x20000620)  returns 0x2C (0016ms, 1032ms total)
                JLINK_WriteMemEx(0x2000061C, 0x0004 Bytes, ..., AccessWidth = 0) -- Data:  01 00 00 00 -- CPU is running -- CPU_WriteMem(4 bytes @ 0x2000061C)  returns 0x04 (0007ms, 1039ms total)
                JLINK_ReadMemEx(0x20000648, 0x000C Bytes, ..., AccessWidth = 0) -- CPU is running -- CPU_ReadMem(12 bytes @ 0x20000648) -- Data:  00 00 00 00 60 04 00 00 00 00 00 00  returns 0x0C (0009ms, 1048ms total)
               -- Preparing RAMCode
                JLINK_WriteMemEx(0x20000658, 0x002C Bytes, ..., AccessWidth = 0) -- Data:  C4 08 00 20 38 02 00 00 00 00 00 08 00 00 00 00 ... -- CPU is running -- CPU_WriteMem(44 bytes @ 0x20000658)  returns 0x2C (0016ms, 1064ms total)
                JLINK_WriteMemEx(0x20000654, 0x0004 Bytes, ..., AccessWidth = 0) -- Data:  08 00 00 00 -- CPU is running -- CPU_WriteMem(4 bytes @ 0x20000654)  returns 0x04 (0007ms, 1071ms total)
               -- End of preparing flash programmingCPU is running at low speed (7971 kHz). -- CPU is running at 7971 kHz. -- Start of comparing flash -- CRC check was estimated as fastest method -- Comparing range 0x8000000 - 0x8002FFF (12 Sectors, 12 KB), using multi-block CRC calculation
                JLINK_WriteMemEx(0x2000068C, 0x0060 Bytes, ..., AccessWidth = 0) -- Data:  00 00 00 00 48 08 00 20 00 04 00 00 06 EB 85 05 ... -- CPU is running -- CPU_WriteMem(96 bytes @ 0x2000068C)  returns 0x60 (0028ms, 1099ms total)
                JLINK_WriteMemEx(0x20000620, 0x002C Bytes, ..., AccessWidth = 0) -- Data:  8C 06 00 20 38 02 00 00 00 00 00 08 00 00 00 00 ... -- CPU is running -- CPU_WriteMem(44 bytes @ 0x20000620)  returns 0x2C (0016ms, 1115ms total)
                JLINK_WriteMemEx(0x2000061C, 0x0004 Bytes, ..., AccessWidth = 0) -- Data:  03 00 00 00 -- CPU is running -- CPU_WriteMem(4 bytes @ 0x2000061C)  returns 0x04 (0007ms, 1122ms total)
                JLINK_ReadMemEx(0x20000680, 0x000C Bytes, ..., AccessWidth = 0) -- CPU is running -- CPU_ReadMem(12 bytes @ 0x20000680) -- Data:  00 00 00 00 00 00 00 00 00 00 00 00  returns 0x0C (0009ms, 1131ms total)
                JLINK_ReadMemEx(0x20000648, 0x000C Bytes, ..., AccessWidth = 0) -- CPU is running -- CPU_ReadMem(12 bytes @ 0x20000648) -- Data:  FF FF FF 7F 60 04 00 00 00 00 00 00  returns 0x0C (0009ms, 1140ms total)
                JLINK_ReadMemEx(0x20000648, 0x000C Bytes, ..., AccessWidth = 0) -- CPU is running -- CPU_ReadMem(12 bytes @ 0x20000648) -- Data:  FF FF FF 7F 60 04 00 00 00 00 00 00  returns 0x0C (0009ms, 1149ms total)
                JLINK_ReadMemEx(0x20000648, 0x000C Bytes, ..., AccessWidth = 0) -- CPU is running -- CPU_ReadMem(12 bytes @ 0x20000648) -- Data:  00 00 00 00 1F 7D 50 EA 00 00 00 00  returns 0x0C (0009ms, 1158ms total)
                JLINK_ReadMemEx(0x2000068C, 0x0060 Bytes, ..., AccessWidth = 0) -- CPU is running -- CPU_ReadMem(96 bytes @ 0x2000068C) -- Data:  00 00 00 00 64 26 A1 50 00 00 00 00 CF 96 0B 51 ...  returns 0x60 (0029ms, 1187ms total)
               -- All CRCs match -- End of comparing flash -- Start of erasing sectors -- End of erasing sectors -- Start of flash programming -- End of flash programming -- Flash programming performed for 0 ranges (0 bytes) -- Flash programming was not necessary -- Start of verifying flash -- End of verifying flash -- Start of restoring
                JLINK_GetDeviceFamily()  returns 3 (0000ms, 1187ms total)
               -- Restore RAMCode
                JLINK_WriteMemEx(0x20000658, 0x002C Bytes, ..., AccessWidth = 0) -- Data:  C4 08 00 20 38 02 00 00 00 00 00 08 00 00 00 00 ... -- CPU is running -- CPU_WriteMem(44 bytes @ 0x20000658)  returns 0x2C (0016ms, 1203ms total)
                JLINK_WriteMemEx(0x20000654, 0x0004 Bytes, ..., AccessWidth = 0) -- Data:  09 00 00 00 -- CPU is running -- CPU_WriteMem(4 bytes @ 0x20000654)  returns 0x04 (0007ms, 1210ms total)
                JLINK_ReadMemEx(0x20000680, 0x000C Bytes, ..., AccessWidth = 0) -- CPU is running -- CPU_ReadMem(12 bytes @ 0x20000680) -- Data:  00 00 00 00 00 00 00 00 00 00 00 00  returns 0x0C (0009ms, 1219ms total)
                JLINK_Halt()  returns 0x00 (0072ms, 1291ms total)
               -- Restore content of target memory
                JLINK_WA_Restore() -- CPU_WriteMem(16 bytes @ 0x2000061C)  returns 0x00 (0010ms, 1301ms total)
               -- Restore target -- Restore memory -- Restore content of registers
                JLINK_WriteReg(XPSR, 0x01000000)  returns 0x00 (0001ms, 1302ms total)
                JLINK_WriteReg(CFBP, 0x00000000)  returns 0x00 (0000ms, 1302ms total)
                JLINK_WriteReg(R0, 0x00000000)  returns 0x00 (0000ms, 1302ms total)
                JLINK_WriteReg(R1, 0x2000005A)  returns 0x00 (0000ms, 1302ms total)
                JLINK_WriteReg(R2, 0x0599059B)  returns 0x00 (0000ms, 1302ms total)
                JLINK_WriteReg(R3, 0x059C059C)  returns 0x00 (0000ms, 1302ms total)
                JLINK_WriteReg(R4, 0x00000000)  returns 0x00 (0000ms, 1302ms total)
                JLINK_WriteReg(R5, 0x200001E8)  returns 0x00 (0000ms, 1302ms total)
                JLINK_WriteReg(R6, 0x00000000)  returns 0x00 (0000ms, 1302ms total)
                JLINK_WriteReg(R7, 0x00000000)  returns 0x00 (0000ms, 1302ms total)
                JLINK_WriteReg(R8, 0x00000000)  returns 0x00 (0000ms, 1302ms total)
                JLINK_WriteReg(R9, 0x7EFEEFFF)  returns 0x00 (0000ms, 1302ms total)
                JLINK_WriteReg(R10, 0x08002BE8)  returns 0x00 (0000ms, 1302ms total)
                JLINK_WriteReg(R11, 0x00000000)  returns 0x00 (0000ms, 1302ms total)
                JLINK_WriteReg(R12, 0x00000003)  returns 0x00 (0000ms, 1302ms total)
                JLINK_WriteReg(R14, 0xFFFFFFFF)  returns 0x00 (0001ms, 1303ms total)
                JLINK_WriteReg(R15, 0x080001BC)  returns 0x00 (0000ms, 1303ms total)
                JLINK_WriteReg(MSP, 0x20000848)  returns 0x00 (0000ms, 1303ms total)
                JLINK_WriteReg(PSP, 0x5D5F7EF0)  returns 0x00 (0000ms, 1303ms total)
               -- End of restoring -- Total time needed: 1.311s (Prepare: 1.138s, Compare: 0.056s, Erase: 0.000s, Program: 0.000s, Verify: 0.000s, Restore: 0.115s) -- CPU_WriteMem(4 bytes @ 0xE000EDF0) -- CPU_WriteMem(4 bytes @ 0xE000EDFC) >0x35 TIF> -- CPU_WriteMem(4 bytes @ 0xE000ED0C) -- CPU_ReadMem(4 bytes @ 0xE000EDF0) -- CPU_ReadMem(4 bytes @ 0xE000EDF0) -- CPU_WriteMem(4 bytes @ 0xE000EDF0) -- CPU_WriteMem(4 bytes @ 0xE000EDFC) -- CPU is running -- CPU_ReadMem(4 bytes @ 0xE000EDF0)
 -- CPU_WriteMem(4 bytes @ 0xE0002000) (1458ms, 1999ms total)
T2EF4 002:080 JLINK_ReadReg(R15)  returns 0x080001BC (0000ms, 1999ms total)
T2EF4 002:081 JLINK_ReadReg(XPSR)  returns 0x01000000 (0000ms, 1999ms total)
T2EF4 002:082 JLINK_ReadMem (0x08000120, 0x003C Bytes, ...) -- Read from flash cache (60 bytes @ 0x08000120) -- Data:  00 F0 02 F8 00 F0 3A F8 0A A0 90 E8 00 0C 82 44 ...  returns 0x00 (0000ms, 1999ms total)
T2EF4 002:082 JLINK_ReadMem (0x0800015C, 0x003C Bytes, ...) -- Read from flash cache (60 bytes @ 0x0800015C) -- Data:  10 3A 24 BF 78 C8 78 C1 FA D8 52 07 24 BF 30 C8 ...  returns 0x00 (0000ms, 1999ms total)
T2EF4 002:082 JLINK_ReadMem (0x08000198, 0x003C Bytes, ...) -- Read from flash cache (60 bytes @ 0x08000198) -- Data:  10 B5 10 BD 02 F0 87 FC 11 46 FF F7 F7 FF 01 F0 ...  returns 0x00 (0000ms, 1999ms total)
T2EF4 002:258 JLINK_ReadMem (0x40013800, 0x0018 Bytes, ...) -- CPU_ReadMem(24 bytes @ 0x40013800) -- Data:  00 00 00 00 00 00 00 00 00 00 00 00 00 00 00 00 ...  returns 0x00 (0012ms, 2011ms total)
T2EF4 002:270 JLINK_ReadMem (0x40013818, 0x0004 Bytes, ...) -- CPU_ReadMem(4 bytes @ 0x40013818) -- Data:  00 00 00 00  returns 0x00 (0007ms, 2018ms total)
T2EF4 003:326 JLINK_ReadMem (0x40013800, 0x0018 Bytes, ...) -- CPU_ReadMem(24 bytes @ 0x40013800) -- Data:  00 00 00 00 00 00 00 00 00 00 00 00 00 00 00 00 ...  returns 0x00 (0012ms, 2030ms total)
T2EF4 003:338 JLINK_ReadMem (0x40013818, 0x0004 Bytes, ...) -- CPU_ReadMem(4 bytes @ 0x40013818) -- Data:  00 00 00 00  returns 0x00 (0007ms, 2037ms total)
T2EF4 003:346 JLINK_ReadMem (0x40013800, 0x0018 Bytes, ...) -- CPU_ReadMem(24 bytes @ 0x40013800) -- Data:  00 00 00 00 00 00 00 00 00 00 00 00 00 00 00 00 ...  returns 0x00 (0011ms, 2048ms total)
T2EF4 003:357 JLINK_ReadMem (0x40013818, 0x0004 Bytes, ...) -- CPU_ReadMem(4 bytes @ 0x40013818) -- Data:  00 00 00 00  returns 0x00 (0007ms, 2055ms total)
T2EF4 003:381 JLINK_ReadMem (0x2000004C, 0x0001 Bytes, ...) -- CPU_ReadMem(64 bytes @ 0x20000040) -- Updating C cache (64 bytes @ 0x20000040) -- Read from C cache (1 bytes @ 0x2000004C) -- Data:  75  returns 0x00 (0021ms, 2076ms total)
T1F3C 003:445 JLINK_SetBPEx(Addr = 0x08001CBE, Type = 0xFFFFFFF2)  returns 0x00000001 (0000ms, 2076ms total)
T1F3C 003:445 JLINK_SetBPEx(Addr = 0x08001D40, Type = 0xFFFFFFF2)  returns 0x00000002 (0000ms, 2076ms total)
T1F3C 003:445 JLINK_SetBPEx(Addr = 0x08001CB4, Type = 0xFFFFFFF2)  returns 0x00000003 (0000ms, 2076ms total)
T1F3C 003:445 JLINK_Go() -- CPU_WriteMem(4 bytes @ 0xE0002008) -- CPU_WriteMem(4 bytes @ 0xE000200C) -- CPU_WriteMem(4 bytes @ 0xE0002010) -- CPU_WriteMem(4 bytes @ 0xE0002014) -- CPU_WriteMem(4 bytes @ 0xE0002018) -- CPU_WriteMem(4 bytes @ 0xE000201C) (0059ms, 2135ms total)
T1F3C 003:604 JLINK_IsHalted()  returns TRUE (0070ms, 2205ms total)
T1F3C 003:674 JLINK_Halt()  returns 0x00 (0000ms, 2135ms total)
T1F3C 003:674 JLINK_IsHalted()  returns TRUE (0000ms, 2135ms total)
T1F3C 003:674 JLINK_IsHalted()  returns TRUE (0001ms, 2136ms total)
T1F3C 003:675 JLINK_IsHalted()  returns TRUE (0000ms, 2135ms total)
T1F3C 003:675 JLINK_ReadReg(R15)  returns 0x08001CBE (0000ms, 2135ms total)
T1F3C 003:675 JLINK_ReadReg(XPSR)  returns 0x21000000 (0000ms, 2135ms total)
T1F3C 003:675 JLINK_ClrBPEx(BPHandle = 0x00000001)  returns 0x00 (0000ms, 2135ms total)
T1F3C 003:675 JLINK_ClrBPEx(BPHandle = 0x00000002)  returns 0x00 (0000ms, 2135ms total)
T1F3C 003:675 JLINK_ClrBPEx(BPHandle = 0x00000003)  returns 0x00 (0000ms, 2135ms total)
T1F3C 003:675 JLINK_ReadMemU32(0xE000ED30, 0x0001 Items, ...) -- CPU_ReadMem(4 bytes @ 0xE000ED30) -- Data:  03 00 00 00  returns 0x01 (0007ms, 2142ms total)
T1F3C 003:682 JLINK_ReadMemU32(0xE0001028, 0x0001 Items, ...) -- CPU_ReadMem(4 bytes @ 0xE0001028) -- Data:  00 00 00 00  returns 0x01 (0007ms, 2149ms total)
T1F3C 003:689 JLINK_ReadMemU32(0xE0001038, 0x0001 Items, ...) -- CPU_ReadMem(4 bytes @ 0xE0001038) -- Data:  00 02 00 00  returns 0x01 (0007ms, 2156ms total)
T1F3C 003:696 JLINK_ReadMemU32(0xE0001048, 0x0001 Items, ...) -- CPU_ReadMem(4 bytes @ 0xE0001048) -- Data:  00 00 00 00  returns 0x01 (0007ms, 2163ms total)
T1F3C 003:703 JLINK_ReadMemU32(0xE0001058, 0x0001 Items, ...) -- CPU_ReadMem(4 bytes @ 0xE0001058) -- Data:  00 00 00 00  returns 0x01 (0007ms, 2170ms total)
T1F3C 003:710 JLINK_ReadReg(R0)  returns 0x20000248 (0000ms, 2170ms total)
T1F3C 003:710 JLINK_ReadReg(R1)  returns 0x20000448 (0001ms, 2171ms total)
T1F3C 003:711 JLINK_ReadReg(R2)  returns 0x20000448 (0000ms, 2171ms total)
T1F3C 003:711 JLINK_ReadReg(R3)  returns 0x20000448 (0000ms, 2171ms total)
T1F3C 003:711 JLINK_ReadReg(R4)  returns 0x00000000 (0000ms, 2171ms total)
T1F3C 003:711 JLINK_ReadReg(R5)  returns 0x200001E8 (0000ms, 2171ms total)
T1F3C 003:711 JLINK_ReadReg(R6)  returns 0x00000000 (0000ms, 2171ms total)
T1F3C 003:711 JLINK_ReadReg(R7)  returns 0x00000000 (0000ms, 2171ms total)
T1F3C 003:711 JLINK_ReadReg(R8)  returns 0x00000000 (0000ms, 2171ms total)
T1F3C 003:711 JLINK_ReadReg(R9)  returns 0x7EFEEFFF (0000ms, 2171ms total)
T1F3C 003:711 JLINK_ReadReg(R10)  returns 0x08002BE8 (0000ms, 2171ms total)
T1F3C 003:711 JLINK_ReadReg(R11)  returns 0x00000000 (0000ms, 2171ms total)
T1F3C 003:711 JLINK_ReadReg(R12)  returns 0x20000228 (0000ms, 2171ms total)
T1F3C 003:711 JLINK_ReadReg(R13)  returns 0x20000848 (0001ms, 2172ms total)
T1F3C 003:712 JLINK_ReadReg(R14)  returns 0x080001AB (0000ms, 2172ms total)
T1F3C 003:712 JLINK_ReadReg(R15)  returns 0x08001CBE (0000ms, 2172ms total)
T1F3C 003:712 JLINK_ReadReg(XPSR)  returns 0x21000000 (0000ms, 2172ms total)
T1F3C 003:712 JLINK_ReadReg(MSP)  returns 0x20000848 (0000ms, 2172ms total)
T1F3C 003:712 JLINK_ReadReg(PSP)  returns 0x5D5F7EF0 (0000ms, 2172ms total)
T1F3C 003:712 JLINK_ReadReg(CFBP)  returns 0x00000000 (0000ms, 2172ms total)
T2EF4 003:713 JLINK_ReadMem (0x2000004C, 0x0001 Bytes, ...) -- CPU_ReadMem(64 bytes @ 0x20000040) -- Updating C cache (64 bytes @ 0x20000040) -- Read from C cache (1 bytes @ 0x2000004C) -- Data:  00  returns 0x00 (0022ms, 2194ms total)
T2EF4 003:737 JLINK_ReadMem (0x40013800, 0x0018 Bytes, ...) -- CPU_ReadMem(24 bytes @ 0x40013800) -- Data:  00 00 00 00 00 00 00 00 00 00 00 00 00 00 00 00 ...  returns 0x00 (0011ms, 2205ms total)
T2EF4 003:748 JLINK_ReadMem (0x40013818, 0x0004 Bytes, ...) -- CPU_ReadMem(4 bytes @ 0x40013818) -- Data:  00 00 00 00  returns 0x00 (0007ms, 2212ms total)
T2EF4 003:756 JLINK_ReadMem (0x08001CBC, 0x003C Bytes, ...) -- Read from flash cache (60 bytes @ 0x08001CBC) -- Data:  10 BD FF F7 F2 FF 04 E0 FF F7 A2 FF 03 48 00 F0 ...  returns 0x00 (0000ms, 2212ms total)
T1F3C 005:133 JLINK_SetBPEx(Addr = 0x08001D40, Type = 0xFFFFFFF2)  returns 0x00000004 (0002ms, 2214ms total)
T1F3C 005:135 JLINK_SetBPEx(Addr = 0x08001CB4, Type = 0xFFFFFFF2)  returns 0x00000005 (0000ms, 2214ms total)
T1F3C 005:135 JLINK_Go() -- CPU_WriteMem(4 bytes @ 0xE0002008) -- CPU_WriteMem(4 bytes @ 0xE000200C) -- CPU_WriteMem(4 bytes @ 0xE0002010) (0039ms, 2253ms total)
T1F3C 005:274 JLINK_IsHalted()  returns TRUE (0071ms, 2324ms total)
T1F3C 005:345 JLINK_Halt()  returns 0x00 (0000ms, 2253ms total)
T1F3C 005:345 JLINK_IsHalted()  returns TRUE (0000ms, 2253ms total)
T1F3C 005:345 JLINK_IsHalted()  returns TRUE (0000ms, 2253ms total)
T1F3C 005:345 JLINK_IsHalted()  returns TRUE (0001ms, 2254ms total)
T1F3C 005:346 JLINK_ReadReg(R15)  returns 0x08001CB4 (0000ms, 2253ms total)
T1F3C 005:346 JLINK_ReadReg(XPSR)  returns 0x01000000 (0000ms, 2253ms total)
T1F3C 005:346 JLINK_ClrBPEx(BPHandle = 0x00000004)  returns 0x00 (0000ms, 2253ms total)
T1F3C 005:346 JLINK_ClrBPEx(BPHandle = 0x00000005)  returns 0x00 (0000ms, 2253ms total)
T1F3C 005:346 JLINK_ReadMemU32(0xE000ED30, 0x0001 Items, ...) -- CPU_ReadMem(4 bytes @ 0xE000ED30) -- Data:  03 00 00 00  returns 0x01 (0007ms, 2260ms total)
T1F3C 005:353 JLINK_ReadMemU32(0xE0001028, 0x0001 Items, ...) -- CPU_ReadMem(4 bytes @ 0xE0001028) -- Data:  00 00 00 00  returns 0x01 (0007ms, 2267ms total)
T1F3C 005:360 JLINK_ReadMemU32(0xE0001038, 0x0001 Items, ...) -- CPU_ReadMem(4 bytes @ 0xE0001038) -- Data:  00 02 00 00  returns 0x01 (0008ms, 2275ms total)
T1F3C 005:368 JLINK_ReadMemU32(0xE0001048, 0x0001 Items, ...) -- CPU_ReadMem(4 bytes @ 0xE0001048) -- Data:  00 00 00 00  returns 0x01 (0008ms, 2283ms total)
T1F3C 005:376 JLINK_ReadMemU32(0xE0001058, 0x0001 Items, ...) -- CPU_ReadMem(4 bytes @ 0xE0001058) -- Data:  00 00 00 00  returns 0x01 (0006ms, 2289ms total)
T1F3C 005:382 JLINK_ReadReg(R0)  returns 0x40010C00 (0000ms, 2289ms total)
T1F3C 005:382 JLINK_ReadReg(R1)  returns 0x00000004 (0000ms, 2289ms total)
T1F3C 005:382 JLINK_ReadReg(R2)  returns 0x00000001 (0000ms, 2289ms total)
T1F3C 005:383 JLINK_ReadReg(R3)  returns 0x00008000 (0000ms, 2290ms total)
T1F3C 005:383 JLINK_ReadReg(R4)  returns 0x00000000 (0000ms, 2290ms total)
T1F3C 005:383 JLINK_ReadReg(R5)  returns 0x200001E8 (0000ms, 2290ms total)
T1F3C 005:383 JLINK_ReadReg(R6)  returns 0x00000000 (0000ms, 2290ms total)
T1F3C 005:383 JLINK_ReadReg(R7)  returns 0x00000000 (0000ms, 2290ms total)
T1F3C 005:383 JLINK_ReadReg(R8)  returns 0x00000000 (0000ms, 2290ms total)
T1F3C 005:383 JLINK_ReadReg(R9)  returns 0x7EFEEFFF (0000ms, 2290ms total)
T1F3C 005:383 JLINK_ReadReg(R10)  returns 0x08002BE8 (0000ms, 2290ms total)
T1F3C 005:383 JLINK_ReadReg(R11)  returns 0x00000000 (0000ms, 2290ms total)
T1F3C 005:383 JLINK_ReadReg(R12)  returns 0x00000200 (0000ms, 2290ms total)
T1F3C 005:383 JLINK_ReadReg(R13)  returns 0x20000840 (0000ms, 2290ms total)
T1F3C 005:383 JLINK_ReadReg(R14)  returns 0x08002347 (0000ms, 2290ms total)
T1F3C 005:383 JLINK_ReadReg(R15)  returns 0x08001CB4 (0001ms, 2291ms total)
T1F3C 005:384 JLINK_ReadReg(XPSR)  returns 0x01000000 (0000ms, 2291ms total)
T1F3C 005:384 JLINK_ReadReg(MSP)  returns 0x20000840 (0000ms, 2291ms total)
T1F3C 005:384 JLINK_ReadReg(PSP)  returns 0x5D5F7EF0 (0000ms, 2291ms total)
T1F3C 005:384 JLINK_ReadReg(CFBP)  returns 0x00000000 (0000ms, 2291ms total)
T2EF4 005:384 JLINK_ReadMem (0x20000844, 0x0004 Bytes, ...) -- CPU_ReadMem(64 bytes @ 0x20000840) -- Updating C cache (64 bytes @ 0x20000840) -- Read from C cache (4 bytes @ 0x20000844) -- Data:  C3 1C 00 08  returns 0x00 (0022ms, 2313ms total)
T2EF4 005:406 JLINK_ReadMem (0x20000840, 0x0004 Bytes, ...) -- Read from C cache (4 bytes @ 0x20000840) -- Data:  00 00 00 00  returns 0x00 (0000ms, 2313ms total)
T2EF4 005:407 JLINK_ReadMem (0x2000004C, 0x0001 Bytes, ...) -- CPU_ReadMem(64 bytes @ 0x20000040) -- Updating C cache (64 bytes @ 0x20000040) -- Read from C cache (1 bytes @ 0x2000004C) -- Data:  00  returns 0x00 (0022ms, 2335ms total)
T2EF4 005:430 JLINK_ReadMem (0x40013800, 0x0018 Bytes, ...) -- CPU_ReadMem(24 bytes @ 0x40013800) -- Data:  C0 00 00 00 00 00 00 00 00 00 00 00 00 00 00 00 ...  returns 0x00 (0012ms, 2347ms total)
T2EF4 005:442 JLINK_ReadMem (0x40013818, 0x0004 Bytes, ...) -- CPU_ReadMem(4 bytes @ 0x40013818) -- Data:  00 00 00 00  returns 0x00 (0007ms, 2354ms total)
T2EF4 005:449 JLINK_ReadMem (0x40013800, 0x0004 Bytes, ...) -- CPU_ReadMem(4 bytes @ 0x40013800) -- Data:  C0 00 00 00  returns 0x00 (0007ms, 2361ms total)
T2EF4 005:456 JLINK_ReadMem (0x40013800, 0x0004 Bytes, ...) -- CPU_ReadMem(4 bytes @ 0x40013800) -- Data:  C0 00 00 00  returns 0x00 (0007ms, 2368ms total)
T2EF4 005:463 JLINK_ReadMem (0x40013800, 0x0004 Bytes, ...) -- CPU_ReadMem(4 bytes @ 0x40013800) -- Data:  C0 00 00 00  returns 0x00 (0007ms, 2375ms total)
T2EF4 005:470 JLINK_ReadMem (0x40013800, 0x0004 Bytes, ...) -- CPU_ReadMem(4 bytes @ 0x40013800) -- Data:  C0 00 00 00  returns 0x00 (0007ms, 2382ms total)
T2EF4 005:477 JLINK_ReadMem (0x40013800, 0x0004 Bytes, ...) -- CPU_ReadMem(4 bytes @ 0x40013800) -- Data:  C0 00 00 00  returns 0x00 (0007ms, 2389ms total)
T2EF4 005:484 JLINK_ReadMem (0x40013800, 0x0004 Bytes, ...) -- CPU_ReadMem(4 bytes @ 0x40013800) -- Data:  C0 00 00 00  returns 0x00 (0007ms, 2396ms total)
T2EF4 005:491 JLINK_ReadMem (0x40013800, 0x0004 Bytes, ...) -- CPU_ReadMem(4 bytes @ 0x40013800) -- Data:  C0 00 00 00  returns 0x00 (0007ms, 2403ms total)
T2EF4 005:498 JLINK_ReadMem (0x40013800, 0x0004 Bytes, ...) -- CPU_ReadMem(4 bytes @ 0x40013800) -- Data:  C0 00 00 00  returns 0x00 (0007ms, 2410ms total)
T2EF4 005:505 JLINK_ReadMem (0x40013800, 0x0004 Bytes, ...) -- CPU_ReadMem(4 bytes @ 0x40013800) -- Data:  C0 00 00 00  returns 0x00 (0008ms, 2418ms total)
T2EF4 005:513 JLINK_ReadMem (0x40013800, 0x0004 Bytes, ...) -- CPU_ReadMem(4 bytes @ 0x40013800) -- Data:  C0 00 00 00  returns 0x00 (0007ms, 2425ms total)
T2EF4 005:520 JLINK_ReadMem (0x40013800, 0x0004 Bytes, ...) -- CPU_ReadMem(4 bytes @ 0x40013800) -- Data:  C0 00 00 00  returns 0x00 (0007ms, 2432ms total)
T2EF4 005:530 JLINK_ReadMem (0x08001CB0, 0x003C Bytes, ...) -- Read from flash cache (60 bytes @ 0x08001CB0) -- Data:  00 F0 4A FB 00 F0 D5 FB 00 F0 BE F9 10 BD FF F7 ...  returns 0x00 (0000ms, 2432ms total)
T1F3C 007:301 JLINK_Step() -- Read from flash cache (2 bytes @ 0x08001CB4) -- Read from flash cache (2 bytes @ 0x08001CB6) -- Simulated  returns 0x00 (0009ms, 2441ms total)
T1F3C 007:310 JLINK_ReadReg(R15)  returns 0x08002462 (0000ms, 2441ms total)
T1F3C 007:310 JLINK_ReadReg(XPSR)  returns 0x01000000 (0000ms, 2441ms total)
T1F3C 007:310 JLINK_SetBPEx(Addr = 0x08001D40, Type = 0xFFFFFFF2)  returns 0x00000006 (0000ms, 2441ms total)
T1F3C 007:310 JLINK_SetBPEx(Addr = 0x08001CB4, Type = 0xFFFFFFF2)  returns 0x00000007 (0000ms, 2441ms total)
T1F3C 007:310 JLINK_Go() (0021ms, 2462ms total)
T1F3C 007:431 JLINK_IsHalted()  returns FALSE (0007ms, 2469ms total)
T1F3C 007:538 JLINK_IsHalted()  returns FALSE (0006ms, 2468ms total)
T1F3C 007:644 JLINK_IsHalted()  returns FALSE (0007ms, 2469ms total)
T1F3C 007:751 JLINK_IsHalted()  returns FALSE (0007ms, 2469ms total)
T1F3C 007:858 JLINK_ReadMemU32(0xE0001004, 0x0001 Items, ...) -- CPU is running -- CPU_ReadMem(4 bytes @ 0xE0001004) -- Data:  70 F1 E0 00  returns 0x01 (0007ms, 2469ms total)
T2EF4 007:866 JLINK_ReadMem (0x2000004C, 0x0001 Bytes, ...) -- CPU is running -- CPU_ReadMem(1 bytes @ 0x2000004C) -- Data:  03  returns 0x00 (0007ms, 2476ms total)
T2EF4 007:874 JLINK_ReadMem (0x40013800, 0x0018 Bytes, ...) -- CPU is running -- CPU_ReadMem(24 bytes @ 0x40013800) -- Data:  C0 00 00 00 00 00 00 00 00 00 00 00 00 20 00 00 ...  returns 0x00 (0012ms, 2488ms total)
T2EF4 007:886 JLINK_ReadMem (0x40013818, 0x0004 Bytes, ...) -- CPU is running -- CPU_ReadMem(4 bytes @ 0x40013818) -- Data:  00 00 00 00  returns 0x00 (0007ms, 2495ms total)
T2EF4 007:893 JLINK_ReadMem (0x4001380C, 0x0004 Bytes, ...) -- CPU is running -- CPU_ReadMem(4 bytes @ 0x4001380C) -- Data:  00 20 00 00  returns 0x00 (0007ms, 2502ms total)
T2EF4 007:900 JLINK_ReadMem (0x4001380C, 0x0004 Bytes, ...) -- CPU is running -- CPU_ReadMem(4 bytes @ 0x4001380C) -- Data:  00 20 00 00  returns 0x00 (0007ms, 2509ms total)
T2EF4 007:907 JLINK_ReadMem (0x4001380C, 0x0004 Bytes, ...) -- CPU is running -- CPU_ReadMem(4 bytes @ 0x4001380C) -- Data:  00 20 00 00  returns 0x00 (0007ms, 2516ms total)
T2EF4 007:914 JLINK_ReadMem (0x4001380C, 0x0004 Bytes, ...) -- CPU is running -- CPU_ReadMem(4 bytes @ 0x4001380C) -- Data:  00 20 00 00  returns 0x00 (0007ms, 2523ms total)
T2EF4 007:921 JLINK_ReadMem (0x4001380C, 0x0004 Bytes, ...) -- CPU is running -- CPU_ReadMem(4 bytes @ 0x4001380C) -- Data:  00 20 00 00  returns 0x00 (0007ms, 2530ms total)
T2EF4 007:928 JLINK_ReadMem (0x4001380C, 0x0004 Bytes, ...) -- CPU is running -- CPU_ReadMem(4 bytes @ 0x4001380C) -- Data:  00 20 00 00  returns 0x00 (0007ms, 2537ms total)
T2EF4 007:935 JLINK_ReadMem (0x4001380C, 0x0004 Bytes, ...) -- CPU is running -- CPU_ReadMem(4 bytes @ 0x4001380C) -- Data:  00 20 00 00  returns 0x00 (0007ms, 2544ms total)
T2EF4 007:942 JLINK_ReadMem (0x4001380C, 0x0004 Bytes, ...) -- CPU is running -- CPU_ReadMem(4 bytes @ 0x4001380C) -- Data:  00 20 00 00  returns 0x00 (0007ms, 2551ms total)
T2EF4 007:949 JLINK_ReadMem (0x4001380C, 0x0004 Bytes, ...) -- CPU is running -- CPU_ReadMem(4 bytes @ 0x4001380C) -- Data:  00 20 00 00  returns 0x00 (0020ms, 2571ms total)
T2EF4 007:969 JLINK_ReadMem (0x4001380C, 0x0004 Bytes, ...) -- CPU is running -- CPU_ReadMem(4 bytes @ 0x4001380C) -- Data:  00 20 00 00  returns 0x00 (0008ms, 2579ms total)
T2EF4 007:977 JLINK_ReadMem (0x4001380C, 0x0004 Bytes, ...) -- CPU is running -- CPU_ReadMem(4 bytes @ 0x4001380C) -- Data:  00 20 00 00  returns 0x00 (0007ms, 2586ms total)
T2EF4 007:984 JLINK_ReadMem (0x4001380C, 0x0004 Bytes, ...) -- CPU is running -- CPU_ReadMem(4 bytes @ 0x4001380C) -- Data:  00 20 00 00  returns 0x00 (0007ms, 2593ms total)
T2EF4 007:991 JLINK_ReadMem (0x4001380C, 0x0004 Bytes, ...) -- CPU is running -- CPU_ReadMem(4 bytes @ 0x4001380C) -- Data:  00 20 00 00  returns 0x00 (0007ms, 2600ms total)
T2EF4 007:998 JLINK_ReadMem (0x4001380C, 0x0004 Bytes, ...) -- CPU is running -- CPU_ReadMem(4 bytes @ 0x4001380C) -- Data:  00 20 00 00  returns 0x00 (0007ms, 2607ms total)
T2EF4 008:005 JLINK_ReadMem (0x4001380C, 0x0004 Bytes, ...) -- CPU is running -- CPU_ReadMem(4 bytes @ 0x4001380C) -- Data:  00 20 00 00  returns 0x00 (0007ms, 2614ms total)
T1F3C 008:015 JLINK_IsHalted()  returns FALSE (0007ms, 2621ms total)
T1F3C 008:122 JLINK_IsHalted()  returns FALSE (0007ms, 2621ms total)
T1F3C 008:229 JLINK_IsHalted()  returns FALSE (0008ms, 2622ms total)
T1F3C 008:337 JLINK_IsHalted()  returns FALSE (0008ms, 2622ms total)
T1F3C 008:445 JLINK_ReadMemU32(0xE0001004, 0x0001 Items, ...) -- CPU is running -- CPU_ReadMem(4 bytes @ 0xE0001004) -- Data:  DB 43 B7 01  returns 0x01 (0007ms, 2621ms total)
T2EF4 008:452 JLINK_ReadMem (0x2000004C, 0x0001 Bytes, ...) -- CPU is running -- CPU_ReadMem(1 bytes @ 0x2000004C) -- Data:  03  returns 0x00 (0007ms, 2628ms total)
T2EF4 008:460 JLINK_ReadMem (0x40013800, 0x0018 Bytes, ...) -- CPU is running -- CPU_ReadMem(24 bytes @ 0x40013800) -- Data:  C0 00 00 00 00 00 00 00 00 00 00 00 00 20 00 00 ...  returns 0x00 (0012ms, 2640ms total)
T2EF4 008:472 JLINK_ReadMem (0x40013818, 0x0004 Bytes, ...) -- CPU is running -- CPU_ReadMem(4 bytes @ 0x40013818) -- Data:  00 00 00 00  returns 0x00 (0007ms, 2647ms total)
T1F3C 008:479 JLINK_IsHalted()  returns FALSE (0007ms, 2654ms total)
T1F3C 008:586 JLINK_IsHalted()  returns FALSE (0006ms, 2653ms total)
T1F3C 008:692 JLINK_IsHalted()  returns FALSE (0007ms, 2654ms total)
T1F3C 008:799 JLINK_IsHalted()  returns FALSE (0007ms, 2654ms total)
T1F3C 008:906 JLINK_IsHalted()  returns FALSE (0007ms, 2654ms total)
T1F3C 009:013 JLINK_ReadMemU32(0xE0001004, 0x0001 Items, ...) -- CPU is running -- CPU_ReadMem(4 bytes @ 0xE0001004) -- Data:  AB 0D 87 02  returns 0x01 (0008ms, 2655ms total)
T2EF4 009:021 JLINK_ReadMem (0x2000004C, 0x0001 Bytes, ...) -- CPU is running -- CPU_ReadMem(1 bytes @ 0x2000004C) -- Data:  03  returns 0x00 (0007ms, 2662ms total)
T2EF4 009:029 JLINK_ReadMem (0x40013800, 0x0018 Bytes, ...) -- CPU is running -- CPU_ReadMem(24 bytes @ 0x40013800) -- Data:  C0 00 00 00 00 00 00 00 00 00 00 00 00 20 00 00 ...  returns 0x00 (0012ms, 2674ms total)
T2EF4 009:042 JLINK_ReadMem (0x40013818, 0x0004 Bytes, ...) -- CPU is running -- CPU_ReadMem(4 bytes @ 0x40013818) -- Data:  00 00 00 00  returns 0x00 (0007ms, 2681ms total)
T1F3C 009:051 JLINK_IsHalted()  returns FALSE (0008ms, 2689ms total)
T1F3C 009:159 JLINK_IsHalted()  returns FALSE (0007ms, 2688ms total)
T1F3C 009:266 JLINK_IsHalted()  returns FALSE (0007ms, 2688ms total)
T1F3C 009:373 JLINK_IsHalted()  returns FALSE (0008ms, 2689ms total)
T1F3C 009:481 JLINK_IsHalted()  returns FALSE (0007ms, 2688ms total)
T1F3C 009:588 JLINK_ReadMemU32(0xE0001004, 0x0001 Items, ...) -- CPU is running -- CPU_ReadMem(4 bytes @ 0xE0001004) -- Data:  42 B3 58 03  returns 0x01 (0007ms, 2688ms total)
T2EF4 009:595 JLINK_ReadMem (0x2000004C, 0x0001 Bytes, ...) -- CPU is running -- CPU_ReadMem(1 bytes @ 0x2000004C) -- Data:  03  returns 0x00 (0007ms, 2695ms total)
T2EF4 009:603 JLINK_ReadMem (0x40013800, 0x0018 Bytes, ...) -- CPU is running -- CPU_ReadMem(24 bytes @ 0x40013800) -- Data:  C0 00 00 00 00 00 00 00 00 00 00 00 00 20 00 00 ...  returns 0x00 (0012ms, 2707ms total)
T2EF4 009:615 JLINK_ReadMem (0x40013818, 0x0004 Bytes, ...) -- CPU is running -- CPU_ReadMem(4 bytes @ 0x40013818) -- Data:  00 00 00 00  returns 0x00 (0007ms, 2714ms total)
T1F3C 009:622 JLINK_IsHalted()  returns FALSE (0007ms, 2721ms total)
T1F3C 009:729 JLINK_IsHalted()  returns FALSE (0007ms, 2721ms total)
T1F3C 009:836 JLINK_IsHalted()  returns FALSE (0007ms, 2721ms total)
T1F3C 009:943 JLINK_IsHalted()  returns FALSE (0007ms, 2721ms total)
T1F3C 010:050 JLINK_IsHalted()  returns FALSE (0007ms, 2721ms total)
T1F3C 010:157 JLINK_ReadMemU32(0xE0001004, 0x0001 Items, ...) -- CPU is running -- CPU_ReadMem(4 bytes @ 0xE0001004) -- Data:  3E D4 28 04  returns 0x01 (0008ms, 2722ms total)
T2EF4 010:165 JLINK_ReadMem (0x2000004C, 0x0001 Bytes, ...) -- CPU is running -- CPU_ReadMem(1 bytes @ 0x2000004C) -- Data:  03  returns 0x00 (0007ms, 2729ms total)
T2EF4 010:173 JLINK_ReadMem (0x40013800, 0x0018 Bytes, ...) -- CPU is running -- CPU_ReadMem(24 bytes @ 0x40013800) -- Data:  C0 00 00 00 00 00 00 00 00 00 00 00 00 20 00 00 ...  returns 0x00 (0012ms, 2741ms total)
T2EF4 010:185 JLINK_ReadMem (0x40013818, 0x0004 Bytes, ...) -- CPU is running -- CPU_ReadMem(4 bytes @ 0x40013818) -- Data:  00 00 00 00  returns 0x00 (0007ms, 2748ms total)
T1F3C 010:192 JLINK_IsHalted()  returns FALSE (0007ms, 2755ms total)
T1F3C 010:299 JLINK_IsHalted()  returns FALSE (0007ms, 2755ms total)
T1F3C 010:406 JLINK_IsHalted()  returns FALSE (0008ms, 2756ms total)
T1F3C 010:514 JLINK_IsHalted()  returns FALSE (0007ms, 2755ms total)
T1F3C 010:621 JLINK_IsHalted()  returns FALSE (0007ms, 2755ms total)
T1F3C 010:728 JLINK_ReadMemU32(0xE0001004, 0x0001 Items, ...) -- CPU is running -- CPU_ReadMem(4 bytes @ 0xE0001004) -- Data:  49 04 F9 04  returns 0x01 (0007ms, 2755ms total)
T2EF4 010:735 JLINK_ReadMem (0x2000004C, 0x0001 Bytes, ...) -- CPU is running -- CPU_ReadMem(1 bytes @ 0x2000004C) -- Data:  03  returns 0x00 (0007ms, 2762ms total)
T2EF4 010:743 JLINK_ReadMem (0x40013800, 0x0018 Bytes, ...) -- CPU is running -- CPU_ReadMem(24 bytes @ 0x40013800) -- Data:  C0 00 00 00 00 00 00 00 00 00 00 00 00 20 00 00 ...  returns 0x00 (0012ms, 2774ms total)
T2EF4 010:755 JLINK_ReadMem (0x40013818, 0x0004 Bytes, ...) -- CPU is running -- CPU_ReadMem(4 bytes @ 0x40013818) -- Data:  00 00 00 00  returns 0x00 (0007ms, 2781ms total)
T1F3C 010:762 JLINK_IsHalted()  returns FALSE (0008ms, 2789ms total)
T1F3C 010:870 JLINK_IsHalted()  returns FALSE (0007ms, 2788ms total)
T1F3C 010:977 JLINK_IsHalted()  returns FALSE (0007ms, 2788ms total)
T1F3C 011:084 JLINK_IsHalted()  returns FALSE (0007ms, 2788ms total)
T1F3C 011:191 JLINK_IsHalted()  returns FALSE (0007ms, 2788ms total)
T1F3C 011:298 JLINK_ReadMemU32(0xE0001004, 0x0001 Items, ...) -- CPU is running -- CPU_ReadMem(4 bytes @ 0xE0001004) -- Data:  FF 7F C9 05  returns 0x01 (0008ms, 2789ms total)
T2EF4 011:306 JLINK_ReadMem (0x2000004C, 0x0001 Bytes, ...) -- CPU is running -- CPU_ReadMem(1 bytes @ 0x2000004C) -- Data:  03  returns 0x00 (0007ms, 2796ms total)
T2EF4 011:314 JLINK_ReadMem (0x40013800, 0x0018 Bytes, ...) -- CPU is running -- CPU_ReadMem(24 bytes @ 0x40013800) -- Data:  C0 00 00 00 00 00 00 00 00 00 00 00 00 20 00 00 ...  returns 0x00 (0012ms, 2808ms total)
T2EF4 011:326 JLINK_ReadMem (0x40013818, 0x0004 Bytes, ...) -- CPU is running -- CPU_ReadMem(4 bytes @ 0x40013818) -- Data:  00 00 00 00  returns 0x00 (0007ms, 2815ms total)
T1F3C 011:333 JLINK_IsHalted()  returns FALSE (0007ms, 2822ms total)
T1F3C 011:440 JLINK_IsHalted()  returns FALSE (0008ms, 2823ms total)
T1F3C 011:548 JLINK_IsHalted()  returns FALSE (0008ms, 2823ms total)
T1F3C 011:656 JLINK_IsHalted()  returns FALSE (0008ms, 2823ms total)
T1F3C 011:764 JLINK_IsHalted()  returns FALSE (0007ms, 2822ms total)
T1F3C 011:871 JLINK_ReadMemU32(0xE0001004, 0x0001 Items, ...) -- CPU is running -- CPU_ReadMem(4 bytes @ 0xE0001004) -- Data:  56 C0 9A 06  returns 0x01 (0008ms, 2823ms total)
T2EF4 011:879 JLINK_ReadMem (0x2000004C, 0x0001 Bytes, ...) -- CPU is running -- CPU_ReadMem(1 bytes @ 0x2000004C) -- Data:  03  returns 0x00 (0007ms, 2830ms total)
T2EF4 011:887 JLINK_ReadMem (0x40013800, 0x0018 Bytes, ...) -- CPU is running -- CPU_ReadMem(24 bytes @ 0x40013800) -- Data:  C0 00 00 00 00 00 00 00 00 00 00 00 00 20 00 00 ...  returns 0x00 (0012ms, 2842ms total)
T2EF4 011:899 JLINK_ReadMem (0x40013818, 0x0004 Bytes, ...) -- CPU is running -- CPU_ReadMem(4 bytes @ 0x40013818) -- Data:  00 00 00 00  returns 0x00 (0007ms, 2849ms total)
T1F3C 011:906 JLINK_IsHalted()  returns FALSE (0008ms, 2857ms total)
T2EF4 011:971 JLINK_ReadMem (0x4001380C, 0x0004 Bytes, ...) -- CPU is running -- CPU_ReadMem(4 bytes @ 0x4001380C) -- Data:  00 20 00 00  returns 0x00 (0008ms, 2857ms total)
T2EF4 011:979 JLINK_WriteMem(0x4001380C, 0x0004 Bytes, ...) -- Data:  00 21 00 00 -- CPU is running -- CPU_WriteMem(4 bytes @ 0x4001380C)  returns 0x04 (0007ms, 2864ms total)
T2EF4 011:990 JLINK_ReadMem (0x08002460, 0x0002 Bytes, ...) -- Read from flash cache (2 bytes @ 0x08002460) -- Data:  10 BD  returns 0x00 (0000ms, 2864ms total)
T2EF4 011:990 JLINK_ReadMem (0x08002462, 0x0002 Bytes, ...) -- Read from flash cache (2 bytes @ 0x08002462) -- Data:  10 B5  returns 0x00 (0000ms, 2864ms total)
T2EF4 011:990 JLINK_ReadMem (0x08002464, 0x0002 Bytes, ...) -- Read from flash cache (2 bytes @ 0x08002464) -- Data:  FF F7  returns 0x00 (0000ms, 2864ms total)
T1F3C 012:017 JLINK_IsHalted()  returns FALSE (0007ms, 2871ms total)
T2EF4 012:099 JLINK_ReadMem (0x2000004C, 0x0001 Bytes, ...) -- CPU is running -- CPU_ReadMem(1 bytes @ 0x2000004C) -- Data:  03  returns 0x00 (0007ms, 2871ms total)
T2EF4 012:107 JLINK_ReadMem (0x40013800, 0x0018 Bytes, ...) -- CPU is running -- CPU_ReadMem(24 bytes @ 0x40013800) -- Data:  C0 00 00 00 00 00 00 00 00 00 00 00 00 21 00 00 ...  returns 0x00 (0012ms, 2883ms total)
T2EF4 012:119 JLINK_ReadMem (0x40013818, 0x0004 Bytes, ...) -- CPU is running -- CPU_ReadMem(4 bytes @ 0x40013818) -- Data:  00 00 00 00  returns 0x00 (0007ms, 2890ms total)
T1F3C 012:126 JLINK_IsHalted()  returns FALSE (0007ms, 2897ms total)
T2EF4 012:133 JLINK_ReadMem (0x4001380C, 0x0004 Bytes, ...) -- CPU is running -- CPU_ReadMem(4 bytes @ 0x4001380C) -- Data:  00 21 00 00  returns 0x00 (0007ms, 2897ms total)
T2EF4 012:144 JLINK_ReadMem (0x4001380C, 0x0004 Bytes, ...) -- CPU is running -- CPU_ReadMem(4 bytes @ 0x4001380C) -- Data:  00 21 00 00  returns 0x00 (0007ms, 2904ms total)
T2EF4 012:154 JLINK_ReadMem (0x4001380C, 0x0004 Bytes, ...) -- CPU is running -- CPU_ReadMem(4 bytes @ 0x4001380C) -- Data:  00 21 00 00  returns 0x00 (0009ms, 2913ms total)
T2EF4 012:167 JLINK_ReadMem (0x4001380C, 0x0004 Bytes, ...) -- CPU is running -- CPU_ReadMem(4 bytes @ 0x4001380C) -- Data:  00 21 00 00  returns 0x00 (0007ms, 2920ms total)
T2EF4 012:178 JLINK_ReadMem (0x4001380C, 0x0004 Bytes, ...) -- CPU is running -- CPU_ReadMem(4 bytes @ 0x4001380C) -- Data:  00 21 00 00  returns 0x00 (0007ms, 2927ms total)
T2EF4 012:189 JLINK_ReadMem (0x4001380C, 0x0004 Bytes, ...) -- CPU is running -- CPU_ReadMem(4 bytes @ 0x4001380C) -- Data:  00 21 00 00  returns 0x00 (0008ms, 2935ms total)
T2EF4 012:200 JLINK_ReadMem (0x4001380C, 0x0004 Bytes, ...) -- CPU is running -- CPU_ReadMem(4 bytes @ 0x4001380C) -- Data:  00 21 00 00  returns 0x00 (0008ms, 2943ms total)
T2EF4 012:212 JLINK_ReadMem (0x4001380C, 0x0004 Bytes, ...) -- CPU is running -- CPU_ReadMem(4 bytes @ 0x4001380C) -- Data:  00 21 00 00  returns 0x00 (0008ms, 2951ms total)
T2EF4 012:224 JLINK_ReadMem (0x4001380C, 0x0004 Bytes, ...) -- CPU is running -- CPU_ReadMem(4 bytes @ 0x4001380C) -- Data:  00 21 00 00  returns 0x00 (0007ms, 2958ms total)
T1F3C 012:233 JLINK_IsHalted()  returns FALSE (0007ms, 2965ms total)
T2EF4 012:240 JLINK_ReadMem (0x4001380C, 0x0004 Bytes, ...) -- CPU is running -- CPU_ReadMem(4 bytes @ 0x4001380C) -- Data:  00 21 00 00  returns 0x00 (0007ms, 2965ms total)
T2EF4 012:251 JLINK_ReadMem (0x4001380C, 0x0004 Bytes, ...) -- CPU is running -- CPU_ReadMem(4 bytes @ 0x4001380C) -- Data:  00 21 00 00  returns 0x00 (0008ms, 2973ms total)
T2EF4 012:263 JLINK_ReadMem (0x4001380C, 0x0004 Bytes, ...) -- CPU is running -- CPU_ReadMem(4 bytes @ 0x4001380C) -- Data:  00 21 00 00  returns 0x00 (0007ms, 2980ms total)
T2EF4 012:274 JLINK_ReadMem (0x4001380C, 0x0004 Bytes, ...) -- CPU is running -- CPU_ReadMem(4 bytes @ 0x4001380C) -- Data:  00 21 00 00  returns 0x00 (0007ms, 2987ms total)
T2EF4 012:285 JLINK_ReadMem (0x4001380C, 0x0004 Bytes, ...) -- CPU is running -- CPU_ReadMem(4 bytes @ 0x4001380C) -- Data:  00 21 00 00  returns 0x00 (0008ms, 2995ms total)
T2EF4 012:297 JLINK_ReadMem (0x4001380C, 0x0004 Bytes, ...) -- CPU is running -- CPU_ReadMem(4 bytes @ 0x4001380C) -- Data:  00 21 00 00  returns 0x00 (0007ms, 3002ms total)
T1F3C 012:340 JLINK_IsHalted()  returns FALSE (0007ms, 3009ms total)
T1F3C 012:447 JLINK_ReadMemU32(0xE0001004, 0x0001 Items, ...) -- CPU is running -- CPU_ReadMem(4 bytes @ 0xE0001004) -- Data:  66 33 6D 07  returns 0x01 (0008ms, 3010ms total)
T2EF4 012:458 JLINK_ReadMem (0x2000004C, 0x0001 Bytes, ...) -- CPU is running -- CPU_ReadMem(1 bytes @ 0x2000004C) -- Data:  03  returns 0x00 (0007ms, 3017ms total)
T2EF4 012:466 JLINK_ReadMem (0x40013800, 0x0018 Bytes, ...) -- CPU is running -- CPU_ReadMem(24 bytes @ 0x40013800) -- Data:  C0 00 00 00 00 00 00 00 00 00 00 00 00 21 00 00 ...  returns 0x00 (0012ms, 3029ms total)
T2EF4 012:478 JLINK_ReadMem (0x40013818, 0x0004 Bytes, ...) -- CPU is running -- CPU_ReadMem(4 bytes @ 0x40013818) -- Data:  00 00 00 00  returns 0x00 (0007ms, 3036ms total)
T1F3C 012:485 JLINK_IsHalted()  returns FALSE (0007ms, 3043ms total)
T1F3C 012:592 JLINK_IsHalted()  returns FALSE (0008ms, 3044ms total)
T1F3C 012:700 JLINK_IsHalted()  returns FALSE (0008ms, 3044ms total)
T1F3C 012:808 JLINK_IsHalted()  returns FALSE (0008ms, 3044ms total)
T1F3C 012:916 JLINK_IsHalted()  returns FALSE (0008ms, 3044ms total)
T1F3C 013:029 JLINK_ReadMemU32(0xE0001004, 0x0001 Items, ...) -- CPU is running -- CPU_ReadMem(4 bytes @ 0xE0001004) -- Data:  0A AE 41 08  returns 0x01 (0008ms, 3044ms total)
T2EF4 013:037 JLINK_ReadMem (0x2000004C, 0x0001 Bytes, ...) -- CPU is running -- CPU_ReadMem(1 bytes @ 0x2000004C) -- Data:  03  returns 0x00 (0007ms, 3051ms total)
T2EF4 013:046 JLINK_ReadMem (0x40013800, 0x0018 Bytes, ...) -- CPU is running -- CPU_ReadMem(24 bytes @ 0x40013800) -- Data:  C0 00 00 00 00 00 00 00 00 00 00 00 00 21 00 00 ...  returns 0x00 (0012ms, 3063ms total)
T2EF4 013:058 JLINK_ReadMem (0x40013818, 0x0004 Bytes, ...) -- CPU is running -- CPU_ReadMem(4 bytes @ 0x40013818) -- Data:  00 00 00 00  returns 0x00 (0007ms, 3070ms total)
T1F3C 013:065 JLINK_IsHalted()  returns FALSE (0007ms, 3077ms total)
T1F3C 013:172 JLINK_IsHalted()  returns FALSE (0008ms, 3078ms total)
T1F3C 013:280 JLINK_IsHalted()  returns FALSE (0008ms, 3078ms total)
